#jfet test circuit 
.model asd njf ( cgd=1f cgs=1f)
.model psd pjf ( cgd=1f cgs=1f)
.model asd njf ( cgd=1f cgs=1f)
.model psd pjf ( cgd=1f cgs=1f)
j1 ( 2 1 0 )  asd 
v1 ( 3 0 )  DC  10.
r1 ( 2 3 )  10.K
v2 ( 1 0 ) pulse iv= 0. pv=-1. delay= 5.p rise= 1.p fall=NA( 0.) width=NA( Inf) period=NA( Inf)  DC  0.  AC  1.
#           v(1)       v(2)       v(3)       i(v1)      i(v2)     
 0.         0.         0.         0.         0.         0.        
-1.         0.         3.3333     10.       -666.67u    3.3667p   
-2.         0.         6.         10.       -400.u      6.024p    
-3.         0.         6.         10.       -400.u      6.0109p   
-4.         0.         6.         10.       -400.u      6.01p     
-5.         0.         6.         10.       -400.u      6.01p     
 27.        0.         6.         10.       -400.u      6.01p     
#           v(1)       v(2)       v(3)       i(v1)      i(v2)     
 27.        0.         6.         10.       -400.u      6.01p     
#           vgs(j1)    vgd(j1)   
 27.        60.1E-18  -6.        
#           ig(j1)     id(j1)     is(j1)     igd(j1)   
 27.       -6.01p      400.u     -400.u     -6.01p     
#           gm(j1)     gds(j1)    ggs(j1)    ggd(j1)   
 27.        400.u      0.         1.3866p    1.0017p   
#           qgs(j1)    qgd(j1)    cqgs(j1)   cqgd(j1)  
 27.        1.f        378.E-18   0.         0.        
#           p(j1)      p(r1)      p(v1)     
 27.        0.0024     0.0016    -0.004     
#           v(1)       v(2)      
 0.         0.9965     2.0047    
 25.        0.99504    2.0066    
 50.        0.9934     2.0089    
 75.        0.9916     2.0113    
 100.       0.98969    2.0139    
#           v(1)       v(2)      
 0.         0.         6.        
 25.        0.         6.        
 50.        0.         6.        
 75.        0.         6.        
 100.       1.f        6.        
#           v(1)       v(2)       iter(0)   
-2.        -2.         10.        6.        
-1.8       -1.8        9.96       5.        
-1.6       -1.6        9.84       5.        
-1.4       -1.4        9.64       5.        
-1.2       -1.2        9.36       5.        
-1.        -1.         9.         5.        
-0.8       -0.8        8.56       5.        
-0.6       -0.6        8.04       5.        
-0.4       -0.4        7.44       5.        
-0.2       -0.2        6.76       5.        
 0.         0.         6.         5.        
 0.2        0.2        5.16       5.        
 0.4        0.4        4.24       5.        
 0.6        0.6        3.24       5.        
 0.8        0.8        2.3566     8.        
 1.         0.99492    2.0068     9.        
 1.2        1.0773     1.9049     8.        
 1.4        1.1004     1.8791     7.        
 1.6        1.1129     1.8656     6.        
 1.8        1.1215     1.8565     6.        
 2.         1.128      1.8497     5.        
#Time       v(1)       v(2)       iter(0)   
 0.         0.         6.         6.        
 10.f       0.         6.         3.        
 20.f       0.         6.         3.        
 30.f       0.         6.         2.        
 40.f       0.         6.         2.        
 50.f       0.         6.         2.        
 1.p        0.         6.         3.        
 2.p        0.         6.         3.        
 3.p        0.         6.         3.        
 4.p        0.         6.         3.        
 5.p        0.         6.         3.        
 6.p       -1.         5.4742     5.        
 7.p       -1.         6.3432     5.        
 8.p       -1.         7.0255     5.        
 9.p       -1.         7.5476     5.        
 10.p      -1.         7.9397     5.        
 11.p      -1.         8.2303     5.        
 12.p      -1.         8.4435     5.        
 13.p      -1.         8.5988     5.        
 14.p      -1.         8.7114     5.        
 15.p      -1.         8.7927     5.        
 16.p      -1.         8.8513     5.        
 17.p      -1.         8.8934     5.        
 18.p      -1.         8.9236     5.        
 19.p      -1.         8.9453     5.        
 20.p      -1.         8.9608     4.        
 21.p      -1.         8.9719     4.        
 22.p      -1.         8.9799     4.        
 23.p      -1.         8.9856     4.        
 24.p      -1.         8.9897     4.        
 25.p      -1.         8.9926     4.        
 26.p      -1.         8.9947     4.        
 27.p      -1.         8.9962     4.        
 28.p      -1.         8.9973     4.        
 29.p      -1.         8.9981     4.        
 30.p      -1.         8.9986     4.        
 31.p      -1.         8.999      4.        
 32.p      -1.         8.9993     4.        
 33.p      -1.         8.9995     4.        
 34.p      -1.         8.9996     4.        
 35.p      -1.         8.9997     4.        
 36.p      -1.         8.9998     4.        
 37.p      -1.         8.9999     4.        
 38.p      -1.         8.9999     4.        
 39.p      -1.         8.9999     4.        
 40.p      -1.         9.         4.        
 41.p      -1.         9.         4.        
 42.p      -1.         9.         4.        
 43.p      -1.         9.         4.        
 44.p      -1.         9.         4.        
 45.p      -1.         9.         4.        
 46.p      -1.         9.         4.        
 47.p      -1.         9.         4.        
 48.p      -1.         9.         4.        
 49.p      -1.         9.         4.        
 50.p      -1.         9.         4.        
#           v(1)       v(2)       ggs(j1)    ggd(j1)    qgs(j1)    qgd(j1)    cqgs(j1)   cqgd(j1)  
 27.        0.         6.         1.3866p    1.0017p    1.f        378.E-18  -0.0016569 -165.83p   
#Freq       vr(1)      vi(1)      vr(2)      vi(2)     
 1.         1.        -182.E-21  -4.         118.74p   
 10.        1.        -1.816E-18 -4.         1.1874n   
 100.       1.        -18.16E-18 -4.         11.874n   
 1.K        1.        -181.6E-18 -4.         118.74n   
 10.K       1.        -1.8157f   -4.         1.1874u   
 100.K      1.        -18.157f   -4.         11.874u   
 1.Meg      1.        -181.57f   -4.         118.74u   
 10.Meg     1.        -1.8157p   -4.         0.0011874 
 100.Meg    1.        -18.157p   -4.         0.011874  
 1.G        1.        -181.51p   -3.9972     0.11867   
 10.G       1.        -1.7523n   -3.7331     1.124     
 100.G      1.        -8.0715n    0.24696    1.7883    
