#jfet test circuit 
.model asd njf ( cgd=1f cgs=1f)
.model psd pjf ( cgd=1f cgs=1f)
j1 2 1 0 asd zap=22 area=2 bob=33 
             ^ ? j1: bad parameter zap ignored
j1 2 1 0 asd zap=22 area=2 bob=33 
                           ^ ? j1: bad parameter bob ignored
.model asd njf ( cgd=1f cgs=1f)
.model psd pjf ( cgd=1f cgs=1f)
j1 ( 2 1 0 )  asd  area=2 bob=33 zap=22
v1 ( 3 0 )  DC  10.
r1 ( 2 3 )  10.K
v2 ( 1 0 ) pulse iv= 0. pv=-1. delay= 5.p rise= 1.p fall=NA( 0.) width=NA( Inf) period=NA( Inf)  DC  0.  AC  1.
#           v(1)       v(2)       v(3)       i(v1)      i(v2)     
 0.         0.         0.         0.         0.         0.        
-1.         0.         2.         10.       -800.u      2.04p     
-2.         0.         2.         10.       -800.u      2.02p     
-3.         0.         2.         10.       -800.u      2.02p     
-4.         0.         2.         10.       -800.u      2.02p     
 27.        0.         2.         10.       -800.u      2.02p     
#           v(1)       v(2)       v(3)       i(v1)      i(v2)     
 27.        0.         2.         10.       -800.u      2.02p     
#           vgs(j1)    vgd(j1)   
 27.        20.2E-18  -2.        
#           ig(j1)     id(j1)     is(j1)     igd(j1)   
 27.       -2.02p      800.u     -800.u     -2.02p     
#           gm(j1)     gds(j1)    ggs(j1)    ggd(j1)   
 27.        800.u      19.28p     1.7733p    1.01p     
#           qgs(j1)    qgd(j1)    cqgs(j1)   cqgd(j1)  
 27.        2.f        1.1547f    0.         0.        
#           p(j1)      p(r1)      p(v1)     
 27.        0.0016     0.0064    -0.008     
#           v(1)       v(2)      
 0.         0.99377    0.89387   
 25.        0.9914     0.89477   
 50.        0.9888     0.89576   
 75.        0.98604    0.89682   
 100.       0.98316    0.89793   
#           v(1)       v(2)      
 0.         0.         2.        
 25.        0.         2.        
 50.        0.         2.        
 75.        0.         2.        
 100.       1.f        2.        
#           v(1)       v(2)       iter(0)   
-2.        -2.         10.        6.        
-1.8       -1.8        9.92       5.        
-1.6       -1.6        9.68       5.        
-1.4       -1.4        9.28       5.        
-1.2       -1.2        8.72       5.        
-1.        -1.         8.         5.        
-0.8       -0.8        7.12       5.        
-0.6       -0.6        6.08       5.        
-0.4       -0.4        4.88       5.        
-0.2       -0.2        3.52       5.        
 0.         0.         2.         5.        
 0.2        0.2        1.4488     7.        
 0.4        0.4        1.2279     6.        
 0.6        0.6        1.0829     6.        
 0.8        0.79999    0.97576    8.        
 1.         0.9912     0.89485    9.        
 1.2        1.0623     0.86866    7.        
 1.4        1.0838     0.8611     7.        
 1.6        1.0959     0.85692    6.        
 1.8        1.1042     0.85406    6.        
 2.         1.1106     0.8519     5.        
#Time       v(1)       v(2)       iter(0)   
 0.         0.         2.         5.        
 10.f       0.         2.         3.        
 20.f       0.         2.         3.        
 30.f       0.         2.         2.        
 40.f       0.         2.         2.        
 50.f       0.         2.         2.        
 1.p        0.         2.         3.        
 2.p        0.         2.         3.        
 3.p        0.         2.         3.        
 4.p        0.         2.         3.        
 5.p        0.         2.         3.        
 6.p       -1.         1.2973     6.        
 7.p       -1.         1.9039     5.        
 8.p       -1.         2.4978     5.        
 9.p       -1.         3.068      5.        
 10.p      -1.         3.6065     5.        
 11.p      -1.         4.1077     5.        
 12.p      -1.         4.5685     5.        
 13.p      -1.         4.9879     5.        
 14.p      -1.         5.366      5.        
 15.p      -1.         5.7043     5.        
 16.p      -1.         6.0049     5.        
 17.p      -1.         6.2705     5.        
 18.p      -1.         6.504      5.        
 19.p      -1.         6.7085     5.        
 20.p      -1.         6.8868     5.        
 21.p      -1.         7.0418     5.        
 22.p      -1.         7.1763     5.        
 23.p      -1.         7.2926     5.        
 24.p      -1.         7.393      5.        
 25.p      -1.         7.4796     5.        
 26.p      -1.         7.5541     5.        
 27.p      -1.         7.6182     5.        
 28.p      -1.         7.6732     5.        
 29.p      -1.         7.7204     5.        
 30.p      -1.         7.7609     5.        
 31.p      -1.         7.7956     5.        
 32.p      -1.         7.8253     5.        
 33.p      -1.         7.8507     5.        
 34.p      -1.         7.8724     5.        
 35.p      -1.         7.891      4.        
 36.p      -1.         7.9069     4.        
 37.p      -1.         7.9205     4.        
 38.p      -1.         7.9321     4.        
 39.p      -1.         7.942      4.        
 40.p      -1.         7.9505     4.        
 41.p      -1.         7.9577     4.        
 42.p      -1.         7.9639     4.        
 43.p      -1.         7.9692     4.        
 44.p      -1.         7.9737     4.        
 45.p      -1.         7.9776     4.        
 46.p      -1.         7.9808     4.        
 47.p      -1.         7.9836     4.        
 48.p      -1.         7.986      4.        
 49.p      -1.         7.9881     4.        
 50.p      -1.         7.9898     4.        
