C: already installed, replacing
stashing as C:0
c: already installed, replacing
stashing as c:0
# spice capacitor test 
"v1 1 0 pulse(0 1 200n) DC 3 AC .3 "
".capacitor c1 1 2 .1n "
"r1b 2 0 2k "
"v2 3 0 pulse(0 1 200n) DC 3 AC .3 "
".model cc c "
".spice_cap c2 3 4 cc capacitance=.1n "
"r1b 4 0 2k "
".list "
v1 ( 1 0 ) pulse iv= 0. pv= 1. delay= 200.n rise=NA( 0.) fall=NA( 0.) width=NA( Inf) period=NA( Inf)  DC  3.  AC  0.3
c1 ( 1 2 )  100.p
r1b ( 2 0 )  2.K
v2 ( 3 0 ) pulse iv= 0. pv= 1. delay= 200.n rise=NA( 0.) fall=NA( 0.) width=NA( Inf) period=NA( Inf)  DC  3.  AC  0.3
.model cc c ()
c2 ( 3 4 )  cc  capacitance=.1n
r1b ( 4 0 )  2.K
".print op v(nodes) "
".op "
#           v(1)       v(2)       v(3)       v(4)      
 27.        3.         0.         3.         0.        
".print tran v(nodes) dt(c1) q(c1) cap(c1) ioffset(c1) y(c1) v(c*) "
".tran 0 .5u 100n skip 5 trace all "
#Time       v(1)       v(2)       v(3)       v(4)       dt(c1)     q(c1)      cap(c1)    ioffset(c1) y(c1)      v(c1)      v(cc)      v(c2)     
 0.         0.         0.         0.         0.         ??         0.         100.p      0.         0.         0.         ??         0.        
 200.p      0.         0.         0.         0.         200.p      0.         100.p      0.         0.5        0.         ??         0.        
 400.p      0.         0.         0.         0.         200.p      0.         100.p      0.         1.         0.         ??         0.        
 600.p      0.         0.         0.         0.         200.p      0.         100.p      0.         1.         0.         ??         0.        
 800.p      0.         0.         0.         0.         200.p      0.         100.p      0.         1.         0.         ??         0.        
 1.n        0.         0.         0.         0.         200.p      0.         100.p      0.         1.         0.         ??         0.        
 20.8n      0.         0.         0.         0.         19.8n      0.         100.p      0.         0.010101   0.         ??         0.        
 40.6n      0.         0.         0.         0.         19.8n      0.         100.p      0.         0.010101   0.         ??         0.        
 60.4n      0.         0.         0.         0.         19.8n      0.         100.p      0.         0.010101   0.         ??         0.        
 80.2n      0.         0.         0.         0.         19.8n      0.         100.p      0.         0.010101   0.         ??         0.        
 100.n      0.         0.         0.         0.         19.8n      0.         100.p      0.         0.010101   0.         ??         0.        
 119.8n     0.         0.         0.         0.         19.8n      0.         100.p      0.         0.010101   0.         ??         0.        
 139.6n     0.         0.         0.         0.         19.8n      0.         100.p      0.         0.010101   0.         ??         0.        
 159.4n     0.         0.         0.         0.         19.8n      0.         100.p      0.         0.010101   0.         ??         0.        
 179.2n     0.         0.         0.         0.         19.8n      0.         100.p      0.         0.010101   0.         ??         0.        
 199.n      0.         0.         0.         0.         19.8n      0.         100.p      0.         0.010101   0.         ??         0.        
 200.n      1.         0.99751    1.         0.99751    1.n        249.38f    100.p      0.         0.2        0.0024938  ??         0.0024938 
 207.14n    1.         0.96251    1.         0.96251    7.1429n    3.7494p    100.p     -568.58u    0.028      0.037494   ??         0.037494  
 211.36n    1.         0.94241    1.         0.94241    4.2208n    5.7595p    100.p     -0.0022579  0.047385   0.057595   ??         0.057595  
 214.65n    1.         0.92706    1.         0.92706    3.2828n    7.2937p    100.p     -0.00398    0.060923   0.072937   ??         0.072937  
 217.93n    1.         0.91197    1.         0.91197    3.2828n    8.803p     100.p     -0.0049071  0.060923   0.08803    ??         0.08803   
 234.34n    1.         0.84007    1.         0.84007    16.414n    15.993p    100.p     -0.0015286  0.012185   0.15993    ??         0.15993   
 250.76n    1.         0.77385    1.         0.77385    16.414n    22.615p    100.p     -0.0023687  0.012185   0.22615    ??         0.22615   
 267.17n    1.         0.71284    1.         0.71284    16.414n    28.716p    100.p     -0.0031425  0.012185   0.28716    ??         0.28716   
 283.59n    1.         0.65664    1.         0.65664    16.414n    34.336p    100.p     -0.0038554  0.012185   0.34336    ??         0.34336   
 300.n      1.         0.60488    1.         0.60488    16.414n    39.512p    100.p     -0.004512   0.012185   0.39512    ??         0.39512   
 316.41n    1.         0.55719    1.         0.55719    16.414n    44.281p    100.p     -0.0051169  0.012185   0.44281    ??         0.44281   
 332.83n    1.         0.51326    1.         0.51326    16.414n    48.674p    100.p     -0.0056741  0.012185   0.48674    ??         0.48674   
 349.24n    1.         0.4728     1.         0.4728     16.414n    52.72p     100.p     -0.0061873  0.012185   0.5272     ??         0.5272    
 365.66n    1.         0.43553    1.         0.43553    16.414n    56.447p    100.p     -0.0066601  0.012185   0.56447    ??         0.56447   
 382.07n    1.         0.40119    1.         0.40119    16.414n    59.881p    100.p     -0.0070957  0.012185   0.59881    ??         0.59881   
 400.n      1.         0.36677    1.         0.36677    17.929n    63.323p    100.p     -0.0068803  0.011155   0.63323    ??         0.63323   
 417.93n    1.         0.3353     1.         0.3353     17.929n    66.47p     100.p     -0.007247   0.011155   0.6647     ??         0.6647    
 435.86n    1.         0.30653    1.         0.30653    17.929n    69.347p    100.p     -0.0075823  0.011155   0.69347    ??         0.69347   
 453.79n    1.         0.28023    1.         0.28023    17.929n    71.977p    100.p     -0.0078889  0.011155   0.71977    ??         0.71977   
 471.72n    1.         0.25619    1.         0.25619    17.929n    74.381p    100.p     -0.0081691  0.011155   0.74381    ??         0.74381   
 489.65n    1.         0.23421    1.         0.23421    17.929n    76.579p    100.p     -0.0084253  0.011155   0.76579    ??         0.76579   
 500.n      1.         0.22239    1.         0.22239    10.354n    77.761p    100.p     -0.01491    0.019317   0.77761    ??         0.77761   
".print ac v(nodes) vp(nodes) "
".ac dec 2 100 10Meg "
#Freq       v(1)       v(2)       v(3)       v(4)       vp(1)      vp(2)      vp(3)      vp(4)     
 100.       0.3        37.699u    0.3        37.699u   -36.p       89.993    -36.p       89.993    
 316.23     0.3        119.22u    0.3        119.22u   -113.84p    89.977    -113.84p    89.977    
 1.K        0.3        376.99u    0.3        376.99u   -360.p      89.928    -360.p      89.928    
 3.1623K    0.3        0.0011921  0.3        0.0011921 -1.1384n    89.772    -1.1384n    89.772    
 10.K       0.3        0.0037696  0.3        0.0037696 -3.5994n    89.28     -3.5994n    89.28     
 31.623K    0.3        0.011912   0.3        0.011912  -11.366n    87.724    -11.366n    87.724    
 100.K      0.3        0.037405   0.3        0.037405  -35.44n     82.838    -35.44n     82.838    
 316.23K    0.3        0.11079    0.3        0.11079   -98.316n    68.328    -98.316n    68.328    
 1.Meg      0.3        0.23474    0.3        0.23474   -139.58n    38.512    -139.58n    38.512    
 3.1623Meg  0.3        0.29093    0.3        0.29093   -67.798n    14.125    -67.798n    14.125    
 10.Meg     0.3        0.29905    0.3        0.29905   -22.654n    4.5499    -22.654n    4.5499    
