Mesfet level 1 subthreshold characteristics 
parameter area has no value
#           i(vids)    i(vref)    i(vpro)   
-3.         0.         0.         42.498u   
-2.5        0.         0.         232.48u   
-2.         0.         0.         457.54u   
-1.5        0.         0.         654.u     
-1.         106.25u    42.498u    808.69u   
-0.5        581.21u    232.48u    926.89u   
 0.         0.0011438  457.54u    0.0010172 
#           i(vids)    i(vref)    i(vpro)   
-3.         0.         0.         0.        
-2.5        0.         0.         0.        
-2.         0.         0.         42.498u   
-1.5        0.         0.         232.48u   
-1.         60.712u    42.498u    457.54u   
-0.5        332.12u    232.48u    654.u     
 0.         653.62u    457.54u    808.69u   
#           i(vids)    i(vref)    i(vpro)   
-3.         0.         0.         0.        
-2.5        0.         0.         0.        
-2.         0.         0.         0.        
-1.5        0.         0.         0.        
-1.         42.498u    42.498u    42.498u   
-0.5        232.48u    232.48u    232.48u   
 0.         457.54u    457.54u    457.54u   
