Q: already installed, replacing
stashing as Q:0
npn: already installed, replacing
stashing as npn:0
pnp: already installed, replacing
stashing as pnp:0
npn1: already installed, replacing
stashing as npn1:0
pnp1: already installed, replacing
stashing as pnp1:0
difpair ckt - simple differential pair 
#           v(1)       v(2)       v(3)       v(4)       v(5)       v(6)      
+ v(7)       v(8)       v(9)      
 27.       -76.611p   -0.0076611 -0.0076611  5.2291     5.2291    -0.76997   
+-11.221     12.       -12.       
#Time       qbc(q1)    qbc(q2)    qbc(q3)    qbc(q4)    qbc(qnl)  
 0.        -2.095p    -2.095p    -4.1811p   -568.5E-18  ??        
 20.n      -1.7765p   -2.3776p   -4.1926p   -568.7E-18  ??        
 40.n      -1.1899p   -2.9513p   -4.2006p   -568.6E-18  ??        
 60.n      -725.23f   -3.4219p   -4.2017p   -568.5E-18  ??        
 80.n      -618.45f   -3.5523p   -4.1948p   -568.3E-18  ??        
 100.n     -933.57f   -3.2685p   -4.1824p   -568.2E-18  ??        
 120.n     -1.5878p   -2.6404p   -4.1698p   -568.2E-18  ??        
 140.n     -2.3607p   -1.8795p   -4.1624p   -568.3E-18  ??        
 160.n     -2.9674p   -1.2667p   -4.1627p   -568.5E-18  ??        
 180.n     -3.189p    -1.0232p   -4.1699p   -568.7E-18  ??        
 200.n     -2.9567p   -1.2252p   -4.1811p   -568.7E-18  ??        
#Time       cmu(q1)    cmu(q2)    cmu(q3)    cmu(q4)    cmu(qnl)  
 0.         400.01f    400.01f    400.f      401.46f    ??        
 20.n       400.01f    400.01f    400.f      401.46f    ??        
 40.n       400.01f    400.01f    400.f      401.46f    ??        
 60.n       400.02f    400.f      400.f      401.46f    ??        
 80.n       400.03f    400.f      400.f      401.46f    ??        
 100.n      400.02f    400.f      400.f      401.46f    ??        
 120.n      400.01f    400.01f    400.f      401.46f    ??        
 140.n      400.01f    400.01f    400.f      401.46f    ??        
 160.n      400.01f    400.01f    400.f      401.46f    ??        
 180.n      400.01f    400.02f    400.f      401.46f    ??        
 200.n      400.01f    400.01f    400.f      401.46f    ??        
#Time       vbc(q1)    vbc(q2)    vbc(q3)    vbc(q4)    vbc(qnl)  
 0.        -5.2375    -5.2375    -10.453    -0.0014159  ??        
 20.n      -4.441     -5.9438    -10.481    -0.0014165  ??        
 40.n      -2.9747    -7.3781    -10.501    -0.0014163  ??        
 60.n      -1.813     -8.5547    -10.504    -0.0014159  ??        
 80.n      -1.546     -8.8807    -10.487    -0.0014155  ??        
 100.n     -2.3338    -8.1711    -10.456    -0.0014152  ??        
 120.n     -3.9694    -6.6009    -10.424    -0.0014151  ??        
 140.n     -5.9015    -4.6987    -10.406    -0.0014155  ??        
 160.n     -7.4185    -3.1666    -10.407    -0.0014159  ??        
 180.n     -7.9725    -2.5578    -10.425    -0.0014163  ??        
 200.n     -7.3917    -3.063     -10.453    -0.0014165  ??        
v(5)   2.                4.               6.                8.              10.
        +-----------------+----------------+-----------------+----------------+
 0.     |                 .         *      .                 .                |
 10.n   |                 .           *    .                 .                |
 20.n   |                 .                *                 .                |
 30.n   |                 .                .     *           .                |
 40.n   |                 .                .           *     .                |
 50.n   |                 .                .                 .*               |
 60.n   |                 .                .                 .     *          |
 70.n   |                 .                .                 .        *       |
 80.n   |                 .                .                 .         *      |
 90.n   |                 .                .                 .       *        |
 100.n  |                 .                .                 .    *           |
 110.n  |                 .                .                *.                |
 120.n  |                 .                .        *        .                |
 130.n  |                 .                .*                .                |
 140.n  |                 .        *       .                 .                |
 150.n  |                 .*               .                 .                |
 160.n  |           *     .                .                 .                |
 170.n  |      *          .                .                 .                |
 180.n  |   *             .                .                 .                |
 190.n  |   *             .                .                 .                |
 200.n  |      *          .                .                 .                |
 210.n  |           *     .                .                 .                |
 220.n  |                 .*               .                 .                |
 230.n  |                 .       *        .                 .                |
 240.n  |                 .                *                 .                |
 250.n  |                 .                .      *          .                |
 260.n  |                 .                .             *   .                |
 270.n  |                 .                .                 *                |
 280.n  |                 .                .                 . *              |
 290.n  |                 .                .                 . *              |
 300.n  |                 .                .                *.                |
 310.n  |                 .                .           *     .                |
 320.n  |                 .                .    *            .                |
 330.n  |                 .             *  .                 .                |
 340.n  |                 .    *           .                 .                |
 350.n  |              *  .                .                 .                |
 360.n  |        *        .                .                 .                |
 370.n  |   *             .                .                 .                |
 380.n  | *               .                .                 .                |
 390.n  | *               .                .                 .                |
 400.n  |    *            .                .                 .                |
 410.n  |         *       .                .                 .                |
 420.n  |                *.                .                 .                |
 430.n  |                 .      *         .                 .                |
 440.n  |                 .               *.                 .                |
 450.n  |                 .                .     *           .                |
 460.n  |                 .                .            *    .                |
 470.n  |                 .                .                 *                |
 480.n  |                 .                .                 . *              |
 490.n  |                 .                .                 .*               |
 500.n  |                 .                .               * .                |
        +-----------------+----------------+-----------------+----------------+
vm(5)  0.                25.              50.               75.            100.
vp(5)-180.              -90.              0.                90.            180.
        +-----------------+----------------+-----------------+----------------+
 10.K   |                 .                +                 . *              |
 17.783K|                 .                +                 . *              |
 31.623K|                 .                +                 . *              |
 56.234K|                 .                +                 . *              |
 100.K  |                 .               +.                 . *              |
 177.83K|                 .               +.                 . *              |
 316.23K|                 .              + .                 . *              |
 562.34K|                 .             +  .                 .*               |
 1.Meg  |                 .           +    .              *  .                |
 1.7783M|                 .        +       .       *         .                |
 3.1623M|                 .     +      *   .                 .                |
 5.6234M|                 . * +            .                 .                |
 10.Meg |           *     . +              .                 .                |
 17.783M|      *          +                .                 .                |
 31.623M|   *            +.                .                 .                |
 56.234M| *           +   .                .                 .                |
 100.Meg|*         +      .                .                 .                |
 177.83M*         +       .                .                 .                |
 316.23M*           +     .                .                 .                |
 562.34M*             +   .                .                 .                |
 1.G    *                 +                .                 .                |
 1.7783G*                 .  +             .                 .                |
 3.1623G*                 .      +         .                 .                |
 5.6234G*                 .         +      .                 .                |
 10.G   *                 .            +   .                 .                |
        +-----------------+----------------+-----------------+----------------+
#           v(1)       v(2)       v(3)       v(4)       v(5)       v(6)      
+ v(7)       v(8)       v(9)      
 27.       -76.611p   -0.0076611 -0.0076611  5.2291     5.2291    -0.76997   
+-11.221     12.       -12.       
vm(5)  0.                25.              50.               75.            100.
vp(5)-180.              -90.              0.                90.            180.
        +-----------------+----------------+-----------------+----------------+
 10.K   |                 .                +                 .       *        |
 17.783K|                 .                +                 .       *        |
 31.623K|                 .                +                 .       *        |
 56.234K|                 .                +                 .       *        |
 100.K  |                 .               +.                 .       *        |
 177.83K|                 .               +.                 .       *        |
 316.23K|                 .              + .                 .       *        |
 562.34K|                 .             +  .                 .     *          |
 1.Meg  |                 .           +    .                 . *              |
 1.7783M|                 .        +       .          *      .                |
 3.1623M|                 .     +       *  .                 .                |
 5.6234M|                 . *+             .                 .                |
 10.Meg |           *     . +              .                 .                |
 17.783M|      *          +                .                 .                |
 31.623M|   *            +.                .                 .                |
 56.234M| *           +   .                .                 .                |
 100.Meg|*         +      .                .                 .                |
 177.83M*         +       .                .                 .                |
 316.23M*           +     .                .                 .                |
 562.34M*             +   .                .                 .                |
 1.G    *                 +                .                 .                |
 1.7783G*                 .  +             .                 .                |
 3.1623G*                 .      +         .                 .                |
 5.6234G*                 .         +      .                 .                |
 10.G   *                 .            +   .                 .                |
        +-----------------+----------------+-----------------+----------------+
Gnucap   System status
iterations: op=9, dc=0, tran=280, fourier=0, total=762
transient timesteps: accepted=114, rejected=0, total=114
nodes: user=9, subckt=0, model=4, total=13
dctran density=65.7%, ac density=65.7%
