Q: already installed, replacing
stashing as Q:0
npn: already installed, replacing
stashing as npn:0
pnp: already installed, replacing
stashing as pnp:0
npn1: already installed, replacing
stashing as npn1:0
pnp1: already installed, replacing
stashing as pnp1:0
difpair ckt - simple differential pair 
#           v(1)       v(2)       v(3)       v(4)       v(5)       v(6)      
+ v(7)       v(8)       v(9)      
 27.       -76.611p   -0.0076611 -0.0076611  5.2291     5.2291    -0.76997   
+-11.221     12.       -12.       
v(4)   0.                2.               4.                6.               8.
v(5)   0.                2.               4.                6.               8.
        +-----------------+----------------+-----------------+----------------+
 0.     |                 .                .          *      .                |
 10.n   |                 .                .         *+      .                |
 20.n   |                 .                .       *    +    .                |
 30.n   |                 .                .     *        +  .                |
 40.n   |                 .                .   *            +.                |
 50.n   |                 .                .*                . +              |
 60.n   |                 .               *.                 .   +            |
 70.n   |                 .             *  .                 .     +          |
 80.n   |                 .            *   .                 .       +        |
 90.n   |                 .           *    .                 .       +        |
 100.n  |                 .           *    .                 .       +        |
 110.n  |                 .             *  .                 .      +         |
 120.n  |                 .               *.                 .    +           |
 130.n  |                 .                . *               . +              |
 140.n  |                 .                .    *           +.                |
 150.n  |                 .                .       *     +   .                |
 160.n  |                 .                .          *      .                |
 170.n  |                 .                .       +    *    .                |
 180.n  |                 .                .     +         * .                |
 190.n  |                 .                .    +           *.                |
 200.n  |                 .                .   +            *.                |
 210.n  |                 .                .    +          * .                |
 220.n  |                 .                .      +      *   .                |
 230.n  |                 .                .         +*      .                |
 240.n  |                 .                .        *  +     .                |
 250.n  |                 .                .     *        +  .                |
 260.n  |                 .                .   *            +.                |
 270.n  |                 .                . *               .+               |
 280.n  |                 .                *                 .  +             |
 290.n  |                 .               *.                 .   +            |
 300.n  |                 .               *.                 .    +           |
 310.n  |                 .                *                 .  +             |
 320.n  |                 .                .  *              .+               |
 330.n  |                 .                .    *          + .                |
 340.n  |                 .                .       *     +   .                |
 350.n  |                 .                .          *      .                |
 360.n  |                 .                .       +     *   .                |
 370.n  |                 .                .     +         * .                |
 380.n  |                 .                .   +             *                |
 390.n  |                 .                . +               .*               |
 400.n  |                 .                . +               .*               |
 410.n  |                 .                .  +              *                |
 420.n  |                 .                .    +          * .                |
 430.n  |                 .                .       +    *    .                |
 440.n  |                 .                .         +*      .                |
 450.n  |                 .                .       *    +    .                |
 460.n  |                 .                .    *          + .                |
 470.n  |                 .                .  *              +                |
 480.n  |                 .                .*                . +              |
 490.n  |                 .                *                 .  +             |
 500.n  |                 .                *                 .  +             |
        +-----------------+----------------+-----------------+----------------+
#Time       qcs(q1)    qcs(q2)    qcs(q3)    qcs(q4)    qcs(qnl)  
 0.        -80.955p   -128.51p    15.383p    224.42p    ??        
 10.n      -80.59p    -128.55p    15.065p    224.42p    ??        
 20.n      -77.798p   -130.95p    14.662p    224.42p    ??        
 30.n      -73.67p    -134.73p    14.287p    224.42p    ??        
 40.n      -69.151p   -139.03p    14.025p    224.42p    ??        
 50.n      -64.755p   -143.36p    13.925p    224.42p    ??        
 60.n      -60.742p   -147.5p     14.008p    224.42p    ??        
 70.n      -57.322p   -151.2p     14.258p    224.42p    ??        
 80.n      -54.853p   -154.05p    14.627p    224.42p    ??        
 90.n      -53.994p   -155.31p    15.031p    224.42p    ??        
 100.n     -55.522p   -154.11p    15.384p    224.42p    ??        
 110.n     -59.689p   -150.16p    15.633p    224.42p    ??        
 120.n     -65.876p   -144.08p    15.776p    224.42p    ??        
 130.n     -73.069p   -136.91p    15.842p    224.42p    ??        
 140.n     -80.499p   -129.47p    15.871p    224.42p    ??        
 150.n     -87.77p    -122.17p    15.882p    224.42p    ??        
 160.n     -94.678p   -115.23p    15.882p    224.42p    ??        
 170.n     -101.02p   -108.84p    15.863p    224.42p    ??        
 180.n     -106.38p   -103.39p    15.805p    224.42p    ??        
 190.n     -110.03p   -99.589p    15.667p    224.42p    ??        
 200.n     -111.04p   -98.315p    15.415p    224.42p    ??        
 210.n     -109.07p   -99.926p    15.058p    224.42p    ??        
 220.n     -104.76p   -103.84p    14.649p    224.42p    ??        
 230.n     -99.237p   -109.02p    14.271p    224.42p    ??        
 240.n     -93.423p   -114.61p    14.007p    224.42p    ??        
 250.n     -87.81p    -120.17p    13.909p    224.42p    ??        
 260.n     -82.643p   -125.46p    13.993p    224.42p    ??        
 270.n     -78.118p   -130.27p    14.245p    224.42p    ??        
 280.n     -74.58p    -134.2p     14.617p    224.42p    ??        
 290.n     -72.679p   -136.51p    15.026p    224.42p    ??        
 300.n     -73.198p   -136.33p    15.384p    224.42p    ??        
#Time       ccs(q1)    ccs(q2)    ccs(q3)    ccs(q4)    ccs(qnl)  
 0.         20.p       20.p       20.p       20.p       ??        
 10.n       20.p       20.p       20.p       20.p       ??        
 20.n       20.p       20.p       20.p       20.p       ??        
 30.n       20.p       20.p       20.p       20.p       ??        
 40.n       20.p       20.p       20.p       20.p       ??        
 50.n       20.p       20.p       20.p       20.p       ??        
 60.n       20.p       20.p       20.p       20.p       ??        
 70.n       20.p       20.p       20.p       20.p       ??        
 80.n       20.p       20.p       20.p       20.p       ??        
 90.n       20.p       20.p       20.p       20.p       ??        
 100.n      20.p       20.p       20.p       20.p       ??        
 110.n      20.p       20.p       20.p       20.p       ??        
 120.n      20.p       20.p       20.p       20.p       ??        
 130.n      20.p       20.p       20.p       20.p       ??        
 140.n      20.p       20.p       20.p       20.p       ??        
 150.n      20.p       20.p       20.p       20.p       ??        
 160.n      20.p       20.p       20.p       20.p       ??        
 170.n      20.p       20.p       20.p       20.p       ??        
 180.n      20.p       20.p       20.p       20.p       ??        
 190.n      20.p       20.p       20.p       20.p       ??        
 200.n      20.p       20.p       20.p       20.p       ??        
 210.n      20.p       20.p       20.p       20.p       ??        
 220.n      20.p       20.p       20.p       20.p       ??        
 230.n      20.p       20.p       20.p       20.p       ??        
 240.n      20.p       20.p       20.p       20.p       ??        
 250.n      20.p       20.p       20.p       20.p       ??        
 260.n      20.p       20.p       20.p       20.p       ??        
 270.n      20.p       20.p       20.p       20.p       ??        
 280.n      20.p       20.p       20.p       20.p       ??        
 290.n      20.p       20.p       20.p       20.p       ??        
 300.n      20.p       20.p       20.p       20.p       ??        
#Time       vcs(q1)    vcs(q2)    vcs(q3)    vcs(q4)    vcs(qnl)  
 0.         ??         ??         ??         ??         ??        
 10.n       ??         ??         ??         ??         ??        
 20.n       ??         ??         ??         ??         ??        
 30.n       ??         ??         ??         ??         ??        
 40.n       ??         ??         ??         ??         ??        
 50.n       ??         ??         ??         ??         ??        
 60.n       ??         ??         ??         ??         ??        
 70.n       ??         ??         ??         ??         ??        
 80.n       ??         ??         ??         ??         ??        
 90.n       ??         ??         ??         ??         ??        
 100.n      ??         ??         ??         ??         ??        
 110.n      ??         ??         ??         ??         ??        
 120.n      ??         ??         ??         ??         ??        
 130.n      ??         ??         ??         ??         ??        
 140.n      ??         ??         ??         ??         ??        
 150.n      ??         ??         ??         ??         ??        
 160.n      ??         ??         ??         ??         ??        
 170.n      ??         ??         ??         ??         ??        
 180.n      ??         ??         ??         ??         ??        
 190.n      ??         ??         ??         ??         ??        
 200.n      ??         ??         ??         ??         ??        
 210.n      ??         ??         ??         ??         ??        
 220.n      ??         ??         ??         ??         ??        
 230.n      ??         ??         ??         ??         ??        
 240.n      ??         ??         ??         ??         ??        
 250.n      ??         ??         ??         ??         ??        
 260.n      ??         ??         ??         ??         ??        
 270.n      ??         ??         ??         ??         ??        
 280.n      ??         ??         ??         ??         ??        
 290.n      ??         ??         ??         ??         ??        
 300.n      ??         ??         ??         ??         ??        
