C: already installed, replacing
stashing as C:0
c: already installed, replacing
stashing as c:0
# spice capacitor test 
"v1 1 0 pulse(1 0 200n) DC 3 AC .3 "
".capacitor c1 1 2 .1n "
"r1b 2 0 2k "
"v2 3 0 pulse(1 0 200n) DC 3 AC .3 "
".model modelc c "
".spice_cap c2 3 4 modelc capacitance=.1n "
"r1b 4 0 2k "
".list "
v1 ( 1 0 ) pulse iv= 1. pv= 0. delay= 200.n rise=NA( 0.) fall=NA( 0.) width=NA( Inf) period=NA( Inf)  DC  3.  AC  0.3
c1 ( 1 2 )  100.p
r1b ( 2 0 )  2.K
v2 ( 3 0 ) pulse iv= 1. pv= 0. delay= 200.n rise=NA( 0.) fall=NA( 0.) width=NA( Inf) period=NA( Inf)  DC  3.  AC  0.3
.model modelc c ()
c2 ( 3 4 )  modelc  capacitance=.1n
r1b ( 4 0 )  2.K
".print op v(nodes) "
".op "
#           v(1)       v(2)       v(3)       v(4)      
 27.        3.         0.         3.         0.        
".print tran v(nodes) dt(c*)  v(c*) qcap(c*) i(c1) ccap(c2) "
".tran 0 .5u 100n skip 5 trace all "
#Time       v(1)       v(2)       v(3)       v(4)       dt(c1)     dt(c2)     v(c1)      v(c2)      qcap(c1)   qcap(c2)   i(c1)      ccap(c2)  
 0.         1.         0.         1.         0.         ??         ??         1.         1.         100.p      100.p      0.         0.        
 200.p      1.         0.         1.         0.         200.p      200.p      1.         1.         100.p      100.p      0.         0.        
 400.p      1.         0.         1.         0.         200.p      200.p      1.         1.         100.p      100.p      0.         0.        
 600.p      1.         0.         1.         0.         200.p      200.p      1.         1.         100.p      100.p      0.         0.        
 800.p      1.         0.         1.         0.         200.p      200.p      1.         1.         100.p      100.p      0.         0.        
 1.n        1.         0.         1.         0.         200.p      200.p      1.         1.         100.p      100.p      0.         0.        
 20.8n      1.         0.         1.         0.         19.8n      19.8n      1.         1.         100.p      100.p      0.         0.        
 40.6n      1.         0.         1.         0.         19.8n      19.8n      1.         1.         100.p      100.p      0.         0.        
 60.4n      1.         0.         1.         0.         19.8n      19.8n      1.         1.         100.p      100.p      0.         0.        
 80.2n      1.         0.         1.         0.         19.8n      19.8n      1.         1.         100.p      100.p      0.         0.        
 100.n      1.         0.         1.         0.         19.8n      19.8n      1.         1.         100.p      100.p      0.         0.        
 119.8n     1.         0.         1.         0.         19.8n      19.8n      1.         1.         100.p      100.p      0.         0.        
 139.6n     1.         0.         1.         0.         19.8n      19.8n      1.         1.         100.p      100.p      0.         0.        
 159.4n     1.         0.         1.         0.         19.8n      19.8n      1.         1.         100.p      100.p      0.         0.        
 179.2n     1.         0.         1.         0.         19.8n      19.8n      1.         1.         100.p      100.p      0.         0.        
 199.n      1.         0.         1.         0.         19.8n      19.8n      1.         1.         100.p      100.p      0.         0.        
 200.n      4.9751n   -0.99502    4.9751n   -0.99502    1.n        1.n        0.99502    0.99502    99.502p    99.502p   -497.51u   -497.51u   
 200.34n    4.9666n   -0.99332    4.9666n   -0.99332    343.64p    343.64p    0.99332    0.99332    99.332p    99.332p   -496.66u   -496.66u   
 200.45n    4.964n    -0.9928     4.964n    -0.9928     104.24p    104.24p    0.9928     0.9928     99.28p     99.28p    -496.4u    -496.4u    
 200.55n    4.9614n   -0.99228    4.9614n   -0.99228    104.24p    104.24p    0.99228    0.99228    99.228p    99.228p   -496.14u   -496.14u   
 200.61n    4.9601n   -0.99202    4.9601n   -0.99202    53.989p    53.989p    0.99202    0.99202    99.202p    99.202p   -496.01u   -496.01u   
 220.48n    4.5116n   -0.90233    4.5116n   -0.90233    19.879n    19.879n    0.90233    0.90233    90.233p    90.233p   -451.16u   -451.16u   
 240.36n    4.1038n   -0.82075    4.1038n   -0.82075    19.879n    19.879n    0.82075    0.82075    82.075p    82.075p   -410.38u   -410.38u   
 260.24n    3.7327n   -0.74655    3.7327n   -0.74655    19.879n    19.879n    0.74655    0.74655    74.655p    74.655p   -373.27u   -373.27u   
 280.12n    3.3953n   -0.67906    3.3953n   -0.67906    19.879n    19.879n    0.67906    0.67906    67.906p    67.906p   -339.53u   -339.53u   
 300.n      3.0883n   -0.61766    3.0883n   -0.61766    19.879n    19.879n    0.61766    0.61766    61.766p    61.766p   -308.83u   -308.83u   
 319.88n    2.8091n   -0.56182    2.8091n   -0.56182    19.879n    19.879n    0.56182    0.56182    56.182p    56.182p   -280.91u   -280.91u   
 339.76n    2.5551n   -0.51103    2.5551n   -0.51103    19.879n    19.879n    0.51103    0.51103    51.103p    51.103p   -255.51u   -255.51u   
 359.64n    2.3241n   -0.46483    2.3241n   -0.46483    19.879n    19.879n    0.46483    0.46483    46.483p    46.483p   -232.41u   -232.41u   
 379.52n    2.114n    -0.4228     2.114n    -0.4228     19.879n    19.879n    0.4228     0.4228     42.28p     42.28p    -211.4u    -211.4u    
 399.39n    1.9229n   -0.38458    1.9229n   -0.38458    19.879n    19.879n    0.38458    0.38458    38.458p    38.458p   -192.29u   -192.29u   
 400.n      1.9171n   -0.38342    1.9171n   -0.38342    606.12p    606.12p    0.38342    0.38342    38.342p    38.342p   -191.71u   -191.71u   
 420.n      1.7428n   -0.34856    1.7428n   -0.34856    20.n       20.n       0.34856    0.34856    34.856p    34.856p   -174.28u   -174.28u   
 440.n      1.5844n   -0.31687    1.5844n   -0.31687    20.n       20.n       0.31687    0.31687    31.687p    31.687p   -158.44u   -158.44u   
 460.n      1.4403n   -0.28807    1.4403n   -0.28807    20.n       20.n       0.28807    0.28807    28.807p    28.807p   -144.03u   -144.03u   
 480.n      1.3094n   -0.26188    1.3094n   -0.26188    20.n       20.n       0.26188    0.26188    26.188p    26.188p   -130.94u   -130.94u   
 500.n      1.1904n   -0.23807    1.1904n   -0.23807    20.n       20.n       0.23807    0.23807    23.807p    23.807p   -119.04u   -119.04u   
".option method=trap "
".tran trace all "
#Time       v(1)       v(2)       v(3)       v(4)       dt(c1)     dt(c2)     v(c1)      v(c2)      qcap(c1)   qcap(c2)   i(c1)      ccap(c2)  
 500.n      1.1904n   -0.23807    1.1904n   -0.23807    20.n       20.n       0.23807    0.23807    23.807p    23.807p   -119.04u   -119.04u   
 500.2n     1.1892n   -0.23783    1.1892n   -0.23783    200.p      200.p      0.23783    0.23783    23.783p    23.783p   -118.92u   -118.92u   
 520.16n    1.0761n   -0.21523    1.0761n   -0.21523    19.96n     19.96n     0.21523    0.21523    21.523p    21.523p   -107.61u   -107.61u   
 540.12n    973.84p   -0.19477    973.84p   -0.19477    19.96n     19.96n     0.19477    0.19477    19.477p    19.477p   -97.384u   -97.384u   
 560.08n    881.27p   -0.17625    881.27p   -0.17625    19.96n     19.96n     0.17625    0.17625    17.625p    17.625p   -88.127u   -88.127u   
 580.04n    797.5p    -0.1595     797.5p    -0.1595     19.96n     19.96n     0.1595     0.1595     15.95p     15.95p    -79.75u    -79.75u    
 600.n      721.69p   -0.14434    721.69p   -0.14434    19.96n     19.96n     0.14434    0.14434    14.434p    14.434p   -72.169u   -72.169u   
 619.96n    653.09p   -0.13062    653.09p   -0.13062    19.96n     19.96n     0.13062    0.13062    13.062p    13.062p   -65.309u   -65.309u   
 639.92n    591.01p   -0.1182     591.01p   -0.1182     19.96n     19.96n     0.1182     0.1182     11.82p     11.82p    -59.101u   -59.101u   
 659.88n    534.83p   -0.10697    534.83p   -0.10697    19.96n     19.96n     0.10697    0.10697    10.697p    10.697p   -53.483u   -53.483u   
 679.84n    483.99p   -0.096798   483.99p   -0.096798   19.96n     19.96n     0.096798   0.096798   9.6798p    9.6798p   -48.399u   -48.399u   
 699.8n     437.98p   -0.087597   437.98p   -0.087597   19.96n     19.96n     0.087597   0.087597   8.7597p    8.7597p   -43.798u   -43.798u   
 700.n      437.54p   -0.087509   437.54p   -0.087509   200.p      200.p      0.087509   0.087509   8.7509p    8.7509p   -43.755u   -43.755u   
 720.n      395.87p   -0.079175   395.87p   -0.079175   20.n       20.n       0.079175   0.079175   7.9175p    7.9175p   -39.587u   -39.587u   
 740.n      358.17p   -0.071634   358.17p   -0.071634   20.n       20.n       0.071634   0.071634   7.1634p    7.1634p   -35.817u   -35.817u   
 760.n      324.06p   -0.064812   324.06p   -0.064812   20.n       20.n       0.064812   0.064812   6.4812p    6.4812p   -32.406u   -32.406u   
 780.n      293.2p    -0.058639   293.2p    -0.058639   20.n       20.n       0.058639   0.058639   5.8639p    5.8639p   -29.32u    -29.32u    
 800.n      265.27p   -0.053055   265.27p   -0.053055   20.n       20.n       0.053055   0.053055   5.3055p    5.3055p   -26.527u   -26.527u   
 820.n      240.01p   -0.048002   240.01p   -0.048002   20.n       20.n       0.048002   0.048002   4.8002p    4.8002p   -24.001u   -24.001u   
 840.n      217.15p   -0.04343    217.15p   -0.04343    20.n       20.n       0.04343    0.04343    4.343p     4.343p    -21.715u   -21.715u   
 860.n      196.47p   -0.039294   196.47p   -0.039294   20.n       20.n       0.039294   0.039294   3.9294p    3.9294p   -19.647u   -19.647u   
 880.n      177.76p   -0.035552   177.76p   -0.035552   20.n       20.n       0.035552   0.035552   3.5552p    3.5552p   -17.776u   -17.776u   
 900.n      160.83p   -0.032166   160.83p   -0.032166   20.n       20.n       0.032166   0.032166   3.2166p    3.2166p   -16.083u   -16.083u   
 920.n      145.51p   -0.029103   145.51p   -0.029103   20.n       20.n       0.029103   0.029103   2.9103p    2.9103p   -14.551u   -14.551u   
 940.n      131.65p   -0.026331   131.65p   -0.026331   20.n       20.n       0.026331   0.026331   2.6331p    2.6331p   -13.165u   -13.165u   
 960.n      119.12p   -0.023823   119.12p   -0.023823   20.n       20.n       0.023823   0.023823   2.3823p    2.3823p   -11.912u   -11.912u   
 980.n      107.77p   -0.021554   107.77p   -0.021554   20.n       20.n       0.021554   0.021554   2.1554p    2.1554p   -10.777u   -10.777u   
 1.u        97.507p   -0.019501   97.507p   -0.019501   20.n       20.n       0.019501   0.019501   1.9501p    1.9501p   -9.7507u   -9.7507u   
".tran 0 "
#Time       v(1)       v(2)       v(3)       v(4)       dt(c1)     dt(c2)     v(c1)      v(c2)      qcap(c1)   qcap(c2)   i(c1)      ccap(c2)  
 0.         1.         0.         1.         0.         ??         ??         1.         1.         100.p      100.p      0.        -9.7507u   
 100.n      1.         0.         1.         0.         19.8n      19.8n      1.         1.         100.p      100.p      0.         0.        
 200.n      4.9875n   -0.99751    4.9875n   -0.99751    1.n        1.n        0.99751    0.99751    99.751p    99.751p   -498.75u   -498.75u   
 300.n      3.0239n   -0.60477    3.0239n   -0.60477    19.874n    19.874n    0.60477    0.60477    60.477p    60.477p   -302.39u   -302.39u   
 400.n      1.8333n   -0.36666    1.8333n   -0.36666    632.5p     632.5p     0.36666    0.36666    36.666p    36.666p   -183.33u   -183.33u   
 500.n      1.1115n   -0.2223     1.1115n   -0.2223     20.n       20.n       0.2223     0.2223     22.23p     22.23p    -111.15u   -111.15u   
".print ac v(nodes) vp(nodes) "
".ac dec 2 100 10Meg "
#Freq       v(1)       v(2)       v(3)       v(4)       vp(1)      vp(2)      vp(3)      vp(4)     
 100.       0.3        37.699u    0.3        37.699u   -36.p       89.993    -36.p       89.993    
 316.23     0.3        119.22u    0.3        119.22u   -113.84p    89.977    -113.84p    89.977    
 1.K        0.3        376.99u    0.3        376.99u   -360.p      89.928    -360.p      89.928    
 3.1623K    0.3        0.0011921  0.3        0.0011921 -1.1384n    89.772    -1.1384n    89.772    
 10.K       0.3        0.0037696  0.3        0.0037696 -3.5994n    89.28     -3.5994n    89.28     
 31.623K    0.3        0.011912   0.3        0.011912  -11.366n    87.724    -11.366n    87.724    
 100.K      0.3        0.037405   0.3        0.037405  -35.44n     82.838    -35.44n     82.838    
 316.23K    0.3        0.11079    0.3        0.11079   -98.316n    68.328    -98.316n    68.328    
 1.Meg      0.3        0.23474    0.3        0.23474   -139.58n    38.512    -139.58n    38.512    
 3.1623Meg  0.3        0.29093    0.3        0.29093   -67.798n    14.125    -67.798n    14.125    
 10.Meg     0.3        0.29905    0.3        0.29905   -22.654n    4.5499    -22.654n    4.5499    
